Title: rca3040 ckt - rca 3040 wideband amplifier
Date: Thu Mar  7 05:42:47  2024
Plotname: AC Analysis
Flags: complex
No. Variables: 33
No. Points: 101     
Command: version 3f5
Variables:
	0	frequency	frequency	grid=3
	1	V(1)	voltage
	2	V(2)	voltage
	3	V(3)	voltage
	4	V(30)	voltage
	5	V(31)	voltage
	6	V(5)	voltage
	7	V(6)	voltage
	8	V(9)	voltage
	9	V(8)	voltage
	10	V(14)	voltage
	11	V(12)	voltage
	12	V(15)	voltage
	13	V(16)	voltage
	14	V(17)	voltage
	15	V(10)	voltage
	16	V(7)	voltage
	17	V(11)	voltage
	18	V(13)	voltage
	19	q11#base	voltage
	20	q10#base	voltage
	21	q9#base	voltage
	22	q8#base	voltage
	23	q7#base	voltage
	24	q6#base	voltage
	25	q5#base	voltage
	26	q4#base	voltage
	27	q3#base	voltage
	28	q2#base	voltage
	29	q1#base	voltage
	30	vee#branch	current
	31	vcc#branch	current
	32	vin#branch	current
Values:
0		1.000000000000000e+00,-9.255963134931783e+61
	1.000000000000000e+00,0.000000000000000e+00
	0.000000000000000e+00,0.000000000000000e+00
	0.000000000000000e+00,0.000000000000000e+00
	9.876673225299587e-01,-8.422535206709847e-09
	9.908225698444175e-03,3.312060488514837e-09
	9.753573250115303e-01,-1.033711101870910e-08
	1.979823076469235e-02,4.657274008937848e-09
	1.161799937790194e-03,2.611110759560565e-09
	7.906011866476774e-04,2.243757526082782e-09
	-1.121434152821111e+02,9.972924666157943e-06
	-3.508285134323134e-07,-1.460199161964441e-12
	1.121416650280004e+02,-9.978732043135152e-06
	1.116155219144095e+02,-9.998944571131901e-06
	-1.116172639567272e+02,9.993165487222632e-06
	-5.335591600520802e-01,-5.499068058380083e-08
	4.972548839710478e-01,-3.302634064055272e-09
	5.335501314019738e-01,5.495853308019460e-08
	-1.754142567161567e-07,-7.300881928170328e-13
	-1.121181878732183e+02,1.003919538220456e-05
	1.121164380128389e+02,-1.004500038345316e-05
	9.234491999148772e-04,2.620785457013854e-09
	-1.544581469971217e-07,-6.396643331397713e-13
	-3.298724037132784e-07,-1.369772581280990e-12
	1.092777216987056e-01,8.056322833591488e-08
	-1.092801288321291e-01,-8.057321620640196e-08
	1.243474983488170e-01,1.685443700324929e-08
	8.706666483974841e-01,-2.340652594738007e-08
	1.089904826828859e-02,3.643266537366320e-09
	9.864340547829544e-01,-9.264788727380831e-09
	2.091209587918551e-04,3.070308958750239e-12
	-2.073118604220874e-04,-5.751577148686681e-12
	-1.233267747004132e-05,-8.422535206709847e-12
1		1.258925411794167e+00,-9.255963134931783e+61
	1.000000000000000e+00,0.000000000000000e+00
	0.000000000000000e+00,0.000000000000000e+00
	0.000000000000000e+00,0.000000000000000e+00
	9.876673225299583e-01,-1.060334360345822e-08
	9.908225698444066e-03,4.169637114390734e-09
	9.753573250115297e-01,-1.301365174599054e-08
	1.979823076469226e-02,5.863160599540348e-09
	1.161799937790213e-03,3.287193688219958e-09
	7.906011866476942e-04,2.824723367490022e-09
	-1.121434152821108e+02,1.255516829213510e-05
	-3.508285134376802e-07,-1.838281831286669e-12
	1.121416650279999e+02,-1.256247934658758e-05
	1.116155219144090e+02,-1.258792541171929e-05
	-1.116172639567268e+02,1.258064997612901e-05
	-5.335591600520837e-01,-6.922916519880268e-08
	4.972548839710473e-01,-4.157769949096320e-09
	5.335501314019768e-01,6.918869388958694e-08
	-1.754142567188402e-07,-9.191265787927855e-13
	-1.121181878732180e+02,1.263859818062398e-05
	1.121164380128384e+02,-1.264590624421134e-05
	9.234491999148968e-04,3.299373410695325e-09
	-1.544581469994923e-07,-8.052896840119661e-13
	-3.298724037183323e-07,-1.724441510962011e-12
	1.092777216987097e-01,1.014230954082588e-07
	-1.092801288321332e-01,-1.014356693922248e-07
	1.243474983488172e-01,2.121847904487441e-08
	8.706666483974832e-01,-2.946707031697644e-08
	1.089904826828847e-02,4.586600825829807e-09
	9.864340547829540e-01,-1.166367796380405e-08
	2.091209587918550e-04,3.865289970229920e-12
	-2.073118604239748e-04,-7.240806630429309e-12
	-1.233267747004175e-05,-1.060334360345822e-11
2		1.584893192461114e+00,-9.255963134931783e+61
	1.000000000000000e+00,0.000000000000000e+00
	0.000000000000000e+00,0.000000000000000e+00
	0.000000000000000e+00,0.000000000000000e+00
	9.876673225299581e-01,-1.334881871237865e-08
	9.908225698443907e-03,5.249262121266620e-09
	9.753573250115296e-01,-1.638321688326697e-08
	1.979823076469215e-02,7.381281872191692e-09
	1.161799937790247e-03,4.138331667589501e-09
	7.906011866477228e-04,3.556116028621985e-09
	-1.121434152821103e+02,1.580602041232121e-05
	-3.508285134253550e-07,-2.314259711421367e-12
	1.121416650279995e+02,-1.581522448455844e-05
	1.116155219144086e+02,-1.584725918258292e-05
	-1.116172639567263e+02,1.583809995183646e-05
	-5.335591600520890e-01,-8.715435530606853e-08
	4.972548839710473e-01,-5.234322245311459e-09
	5.335501314019826e-01,8.710340494644847e-08
	-1.754142567126776e-07,-1.157111806685203e-12
	-1.121181878732174e+02,1.591105241904301e-05
	1.121164380128380e+02,-1.592025272600415e-05
	9.234491999149303e-04,4.153665029722341e-09
	-1.544581469940783e-07,-1.013799647047558e-12
	-3.298724037067557e-07,-2.170943239279535e-12
	1.092777216987162e-01,1.276841121522809e-07
	-1.092801288321396e-01,-1.276999418602230e-07
	1.243474983488178e-01,2.671248246921442e-08
	8.706666483974823e-01,-3.709684363316716e-08
	1.089904826828830e-02,5.774188333393281e-09
	9.864340547829539e-01,-1.468370058361651e-08
	2.091209587918550e-04,4.866111767475587e-12
	-2.073118604238915e-04,-9.115635468660835e-12
	-1.233267747004175e-05,-1.334881871237865e-11
3		1.995262314968880e+00,-9.255963134931783e+61
	1.000000000000000e+00,0.000000000000000e+00
	0.000000000000000e+00,0.000000000000000e+00
	0.000000000000000e+00,0.000000000000000e+00
	9.876673225299587e-01,-1.680516709444689e-08
	9.908225698443667e-03,6.608429477631152e-09
	9.753573250115301e-01,-2.062524806127994e-08
	1.979823076469198e-02,9.292483320517797e-09
	1.161799937790299e-03,5.209850898760956e-09
	7.906011866477676e-04,4.476884835720771e-09
	-1.121434152821095e+02,1.989860075640840e-05
	-3.508285134179986e-07,-2.913480360200423e-12
	1.121416650279987e+02,-1.991018799683989e-05
	1.116155219144078e+02,-1.995051729224205e-05
	-1.116172639567255e+02,1.993898650390280e-05
	-5.335591600520979e-01,-1.097208326433466e-07
	4.972548839710473e-01,-6.589621288142037e-09
	5.335501314019916e-01,1.096566899408807e-07
	-1.754142567089995e-07,-1.456717457723377e-12
	-1.121181878732166e+02,2.003082821872221e-05
	1.121164380128372e+02,-2.004241071895194e-05
	9.234491999149826e-04,5.229154457998230e-09
	-1.544581469908591e-07,-1.276298138136539e-12
	-3.298724036998582e-07,-2.733055611492476e-12
	1.092777216987265e-01,1.607447734708818e-07
	-1.092801288321498e-01,-1.607647018924714e-07
	1.243474983488187e-01,3.362902299260023e-08
	8.706666483974814e-01,-4.670215914714866e-08
	1.089904826828803e-02,7.269272425394267e-09
	9.864340547829544e-01,-1.848568380389157e-08
	2.091209587918551e-04,6.126071760705674e-12
	-2.073118604212409e-04,-1.147590513644907e-11
	-1.233267747004132e-05,-1.680516709444689e-11
4		2.511886431509581e+00,-9.255963134931783e+61
	1.000000000000000e+00,0.000000000000000e+00
	0.000000000000000e+00,0.000000000000000e+00
	0.000000000000000e+00,0.000000000000000e+00
	9.876673225299593e-01,-2.115645190464659e-08
	9.908225698443287e-03,8.319519801439597e-09
	9.753573250115305e-01,-2.596564890890396e-08
	1.979823076469172e-02,1.169854339087338e-08
	1.161799937790381e-03,6.558813688108845e-09
	7.906011866478381e-04,5.636064085364832e-09
	-1.121434152821084e+02,2.505085415138912e-05
	-3.508285134462725e-07,-3.667854462276820e-12
	1.121416650279975e+02,-2.506544162282083e-05
	1.116155219144066e+02,-2.511621319764237e-05
	-1.116172639567244e+02,2.510169679518412e-05
	-5.335591600521127e-01,-1.381303444179221e-07
	4.972548839710475e-01,-8.295841693741905e-09
	5.335501314020059e-01,1.380495935398065e-07
	-1.754142567231366e-07,-1.833898625360794e-12
	-1.121181878732155e+02,2.521731866383303e-05
	1.121164380128360e+02,-2.523190016770429e-05
	9.234491999150650e-04,6.583115429370724e-09
	-1.544581470033381e-07,-1.606764159150239e-12
	-3.298724037264741e-07,-3.440713161207737e-12
	1.092777216987428e-01,2.023656801355879e-07
	-1.092801288321663e-01,-2.023907685319442e-07
	1.243474983488202e-01,4.233643161919471e-08
	8.706666483974804e-01,-5.879453493600100e-08
	1.089904826828761e-02,9.151471781583557e-09
	9.864340547829551e-01,-2.327209709511124e-08
	2.091209587918553e-04,7.712267414026966e-12
	-2.073118604221568e-04,-1.444730859945808e-11
	-1.233267747004067e-05,-2.115645190464659e-11
5		3.162277660168380e+00,-9.255963134931783e+61
	1.000000000000000e+00,0.000000000000000e+00
	0.000000000000000e+00,0.000000000000000e+00
	0.000000000000000e+00,0.000000000000000e+00
	9.876673225299599e-01,-2.663439492616073e-08
	9.908225698442684e-03,1.047365489195725e-08
	9.753573250115309e-01,-3.268881524514471e-08
	1.979823076469130e-02,1.472759355574738e-08
	1.161799937790513e-03,8.257057223183648e-09
	7.906011866479513e-04,7.095384299566236e-09
	-1.121434152821063e+02,3.153715687833290e-05
	-3.508285134176411e-07,-4.617555189257674e-12
	1.121416650279956e+02,-3.155552141681212e-05
	1.116155219144047e+02,-3.161943904255176e-05
	-1.116172639567223e+02,3.160116397460923e-05
	-5.335591600521347e-01,-1.738958007275985e-07
	4.972548839710476e-01,-1.044384592047317e-08
	5.335501314020284e-01,1.737941413951145e-07
	-1.754142567088210e-07,-2.308741582088475e-12
	-1.121181878732134e+02,3.174672328321047e-05
	1.121164380128340e+02,-3.176508030897618e-05
	9.234491999151971e-04,8.287651302809073e-09
	-1.544581469907817e-07,-2.022796230686424e-12
	-3.298724036996019e-07,-4.331601233278536e-12
	1.092777216987687e-01,2.547632971976976e-07
	-1.092801288321920e-01,-2.547948816174114e-07
	1.243474983488226e-01,5.329840961009024e-08
	8.706666483974781e-01,-7.401793410555136e-08
	1.089904826828695e-02,1.152102038115298e-08
	9.864340547829558e-01,-2.929783441877680e-08
	2.091209587918555e-04,9.709169430070668e-12
	-2.073118604229756e-04,-1.818808392809724e-11
	-1.233267747004002e-05,-2.663439492616073e-11
6		3.981071705534974e+00,-9.255963134931783e+61
	1.000000000000000e+00,0.000000000000000e+00
	0.000000000000000e+00,0.000000000000000e+00
	0.000000000000000e+00,0.000000000000000e+00
	9.876673225299603e-01,-3.353071660030584e-08
	9.908225698441705e-03,1.318555029784761e-08
	9.753573250115311e-01,-4.115278019355767e-08
	1.979823076469060e-02,1.854094178190671e-08
	1.161799937790720e-03,1.039501916490447e-08
	7.906011866481297e-04,8.932559601169292e-09
	-1.121434152821033e+02,3.970292820987206e-05
	-3.508285134226649e-07,-5.813157568176569e-12
	1.121416650279924e+02,-3.972604779403940e-05
	1.116155219144015e+02,-3.980651531734457e-05
	-1.116172639567192e+02,3.978350836990948e-05
	-5.335591600521705e-01,-2.189218425402607e-07
	4.972548839710473e-01,-1.314802302614657e-08
	5.335501314020639e-01,2.187938610232500e-07
	-1.754142567113332e-07,-2.906533446986078e-12
	-1.121181878732103e+02,3.996675668243077e-05
	1.121164380128308e+02,-3.998986680865217e-05
	9.234491999154055e-04,1.043353482919538e-08
	-1.544581469930713e-07,-2.546549577717967e-12
	-3.298724037044032e-07,-5.453162866387704e-12
	1.092777216988096e-01,3.207279888346425e-07
	-1.092801288322330e-01,-3.207677512632375e-07
	1.243474983488261e-01,6.709872226635684e-08
	8.706666483974740e-01,-9.318305817398464e-08
	1.089904826828587e-02,1.450410532763237e-08
	9.864340547829562e-01,-3.688378826033642e-08
	2.091209587918558e-04,1.222312012293103e-11
	-2.073118604221984e-04,-2.289744104855622e-11
	-1.233267747003980e-05,-3.353071660030584e-11
7		5.011872336272725e+00,-9.255963134931783e+61
	1.000000000000000e+00,0.000000000000000e+00
	0.000000000000000e+00,0.000000000000000e+00
	0.000000000000000e+00,0.000000000000000e+00
	9.876673225299621e-01,-4.221267120379400e-08
	9.908225698440187e-03,1.659962433845123e-08
	9.753573250115324e-01,-5.180828075164982e-08
	1.979823076468954e-02,2.334166276783928e-08
	1.161799937791049e-03,1.308655378278561e-08
	7.906011866484117e-04,1.124542627427798e-08
	-1.121434152820984e+02,4.998302524604648e-05
	-3.508285134208649e-07,-7.318331785313660e-12
	1.121416650279876e+02,-5.001213107806485e-05
	1.116155219143966e+02,-5.011343368797787e-05
	-1.116172639567143e+02,5.008446965720401e-05
	-5.335591600522270e-01,-2.756062707707198e-07
	4.972548839710474e-01,-1.655238030247061e-08
	5.335501314021206e-01,2.754451515867154e-07
	-1.754142567104337e-07,-3.659108816626766e-12
	-1.121181878732054e+02,5.031516561450546e-05
	1.121164380128259e+02,-5.034425953967535e-05
	9.234491999157349e-04,1.313504213131356e-08
	-1.544581469924022e-07,-3.205915975770857e-12
	-3.298724037028337e-07,-6.865125307122100e-12
	1.092777216988747e-01,4.037726154175511e-07
	-1.092801288322980e-01,-4.038226733493436e-07
	1.243474983488319e-01,8.447228656003543e-08
	8.706666483974684e-01,-1.173105198839228e-07
	1.089904826828421e-02,1.825958677229635e-08
	9.864340547829582e-01,-4.643393832417340e-08
	2.091209587918564e-04,1.538799653417056e-11
	-2.073118604221152e-04,-2.882617040199524e-11
	-1.233267747003785e-05,-4.221267120379401e-11
8		6.309573444801935e+00,-9.255963134931783e+61
	1.000000000000000e+00,0.000000000000000e+00
	0.000000000000000e+00,0.000000000000000e+00
	0.000000000000000e+00,0.000000000000000e+00
	9.876673225299645e-01,-5.314260447816964e-08
	9.908225698437766e-03,2.089768890591458e-08
	9.753573250115339e-01,-6.522276117961997e-08
	1.979823076468784e-02,2.938541241196397e-08
	1.161799937791569e-03,1.647499510995985e-08
	7.906011866488592e-04,1.415715290314632e-08
	-1.121434152820906e+02,6.292490064059552e-05
	-3.508285134132399e-07,-9.213233856489636e-12
	1.121416650279798e+02,-6.296154271215478e-05
	1.116155219143888e+02,-6.308907514205533e-05
	-1.116172639567065e+02,6.305261158768619e-05
	-5.335591600523167e-01,-3.469677379230517e-07
	4.972548839710473e-01,-2.083821218846150e-08
	5.335501314022101e-01,3.467649008879809e-07
	-1.754142567066218e-07,-4.606545073780169e-12
	-1.121181878731976e+02,6.334304059073117e-05
	1.121164380128181e+02,-6.337966767245631e-05
	9.234491999162576e-04,1.653603832409762e-08
	-1.544581469892406e-07,-4.036009089982853e-12
	-3.298724036958591e-07,-8.642680704303923e-12
	1.092777216989777e-01,5.083196061357150e-07
	-1.092801288324010e-01,-5.083826253381108e-07
	1.243474983488411e-01,1.063443081427867e-07
	8.706666483974591e-01,-1.476851945526548e-07
	1.089904826828154e-02,2.298745779650603e-08
	9.864340547829608e-01,-5.845686492598660e-08
	2.091209587918572e-04,1.937233987346782e-11
	-2.073118604221707e-04,-3.628999844326819e-11
	-1.233267747003546e-05,-5.314260447816964e-11
9		7.943282347242818e+00,-9.255963134931783e+61
	1.000000000000000e+00,0.000000000000000e+00
	0.000000000000000e+00,0.000000000000000e+00
	0.000000000000000e+00,0.000000000000000e+00
	9.876673225299681e-01,-6.690257522649721e-08
	9.908225698433927e-03,2.630863161142766e-08
	9.753573250115366e-01,-8.211059147640873e-08
	1.979823076468515e-02,3.699404242147581e-08
	1.161799937792395e-03,2.074079000311305e-08
	7.906011866495689e-04,1.782279954842643e-08
	-1.121434152820783e+02,7.921775645106495e-05
	-3.508285133663888e-07,-1.159877422659873e-11
	1.121416650279675e+02,-7.926388608609189e-05
	1.116155219143764e+02,-7.942443990292151e-05
	-1.116172639566941e+02,7.937853500772169e-05
	-5.335591600524582e-01,-4.368065023440047e-07
	4.972548839710471e-01,-2.623375486041335e-08
	5.335501314023522e-01,4.365511456461017e-07
	-1.754142566831974e-07,-5.799296653887879e-12
	-1.121181878731851e+02,7.974416345997701e-05
	1.121164380128057e+02,-7.979027422392084e-05
	9.234491999170866e-04,2.081763885660868e-08
	-1.544581469689233e-07,-5.081034405554065e-12
	-3.298724036521155e-07,-1.088049036454448e-11
	1.092777216991410e-01,6.399364694773876e-07
	-1.092801288325640e-01,-6.400158059527138e-07
	1.243474983488555e-01,1.338795519206220e-07
	8.706666483974443e-01,-1.859246443681014e-07
	1.089904826827732e-02,2.893949477257043e-08
	9.864340547829649e-01,-7.359283274914692e-08
	2.091209587918585e-04,2.438833095262186e-11
	-2.073118604229617e-04,-4.568640123423184e-11
	-1.233267747003178e-05,-6.690257522649722e-11
10		1.000000000000001e+01,-9.255963134931783e+61
	1.000000000000000e+00,0.000000000000000e+00
	0.000000000000000e+00,0.000000000000000e+00
	0.000000000000000e+00,0.000000000000000e+00
	9.876673225299735e-01,-8.422535206711387e-08
	9.908225698427829e-03,3.312060488516308e-08
	9.753573250115398e-01,-1.033711101871059e-07
	1.979823076468085e-02,4.657274008939255e-08
	1.161799937793703e-03,2.611110759560531e-08
	7.906011866506921e-04,2.243757526082753e-08
	-1.121434152820587e+02,9.972924666155961e-05
	-3.508285133437341e-07,-1.460199161958532e-11
	1.121416650279479e+02,-9.978732043133165e-05
	1.116155219143567e+02,-9.998944571129896e-05
	-1.116172639566744e+02,9.993165487220628e-05
	-5.335591600526826e-01,-5.499068058376696e-07
	4.972548839710465e-01,-3.302634064055324e-08
	5.335501314025765e-01,5.495853308016076e-07
	-1.754142566718717e-07,-7.300881928140807e-12
	-1.121181878731653e+02,1.003919538220254e-04
	1.121164380127858e+02,-1.004500038345114e-04
	9.234491999183986e-04,2.620785457013821e-08
	-1.544581469594400e-07,-6.396643331379516e-12
	-3.298724036313036e-07,-1.369772581276213e-11
	1.092777216993996e-01,8.056322833587920e-07
	-1.092801288328224e-01,-8.057321620636626e-07
	1.243474983488784e-01,1.685443700324844e-07
	8.706666483974201e-01,-2.340652594737931e-07
	1.089904826827061e-02,3.643266537367938e-08
	9.864340547829706e-01,-9.264788727382525e-08
	2.091209587918604e-04,3.070308958750168e-11
	-2.073118604221429e-04,-5.751577148829947e-11
	-1.233267747002657e-05,-8.422535206711388e-11
11		1.258925411794168e+01,-9.255963134931783e+61
	1.000000000000000e+00,0.000000000000000e+00
	0.000000000000000e+00,0.000000000000000e+00
	0.000000000000000e+00,0.000000000000000e+00
	9.876673225299826e-01,-1.060334360346106e-07
	9.908225698418182e-03,4.169637114393683e-08
	9.753573250115462e-01,-1.301365174599327e-07
	1.979823076467407e-02,5.863160599543178e-08
	1.161799937795778e-03,3.287193688219905e-08
	7.906011866524752e-04,2.824723367489976e-08
	-1.121434152820278e+02,1.255516829213112e-04
	-3.508285132933348e-07,-1.838281831266737e-11
	1.121416650279170e+02,-1.256247934658359e-04
	1.116155219143255e+02,-1.258792541171525e-04
	-1.116172639566433e+02,1.258064997612499e-04
	-5.335591600530387e-01,-6.922916519873522e-07
	4.972548839710461e-01,-4.157769949096263e-08
	5.335501314029329e-01,6.918869388951963e-07
	-1.754142566466749e-07,-9.191265787828258e-12
	-1.121181878731341e+02,1.263859818061994e-04
	1.121164380127545e+02,-1.264590624420729e-04
	9.234491999204812e-04,3.299373410695271e-08
	-1.544581469380290e-07,-8.052896840047976e-12
	-3.298724035846907e-07,-1.724441510944873e-11
	1.092777216998096e-01,1.014230954081878e-06
	-1.092801288332321e-01,-1.014356693921536e-06
	1.243474983489148e-01,2.121847904487278e-07
	8.706666483973832e-01,-2.946707031697471e-07
	1.089904826826000e-02,4.586600825833051e-08
	9.864340547829807e-01,-1.166367796380717e-07
	2.091209587918637e-04,3.865289970229854e-11
	-2.073118604221984e-04,-7.240806630355519e-11
	-1.233267747001747e-05,-1.060334360346106e-10
12		1.584893192461115e+01,-9.255963134931783e+61
	1.000000000000000e+00,0.000000000000000e+00
	0.000000000000000e+00,0.000000000000000e+00
	0.000000000000000e+00,0.000000000000000e+00
	9.876673225299967e-01,-1.334881871238450e-07
	9.908225698402891e-03,5.249262121272502e-08
	9.753573250115555e-01,-1.638321688327257e-07
	1.979823076466333e-02,7.381281872197333e-08
	1.161799937799064e-03,4.138331667589383e-08
	7.906011866552987e-04,3.556116028621883e-08
	-1.121434152819785e+02,1.580602041231322e-04
	-3.508285131990549e-07,-2.314259711442834e-11
	1.121416650278677e+02,-1.581522448455046e-04
	1.116155219142759e+02,-1.584725918257485e-04
	-1.116172639565937e+02,1.583809995182838e-04
	-5.335591600536028e-01,-8.715435530593385e-07
	4.972548839710454e-01,-5.234322245311431e-08
	5.335501314034977e-01,8.710340494631354e-07
	-1.754142565995395e-07,-1.157111806695949e-11
	-1.121181878730842e+02,1.591105241903489e-04
	1.121164380127047e+02,-1.592025272599604e-04
